Vin,Iin,Vout,Iout,fs,D,R,P_loss,P_mosfet,P_capacitor,P_diode,P_inductor,P_capacitor_pred,P_inductor_pred,P_diode_pred,P_mosfet_pred,P_total_pred
20.08075834556906,5.123611171275583,41.536956375296846,2.0768478187648425,152023.41575449766,0.5204615552177562,20,16.62006054087736,6.930116248418415,0.8279987992514756,5.618425884428417,3.2435196087790525,1.089535,3.064663,5.310217,7.928056,17.392471
24.082367464376823,4.842793587098923,44.22095485263963,2.211047742631982,186889.50175577705,0.4598096054677261,20,18.851292314684173,8.78502716668316,1.8539196014297896,4.81705932937991,3.395286217191314,1.1636531,3.4476967,5.9248314,8.876261,19.412441
22.100097971097583,9.450628630813748,41.350314905756896,4.13503149057569,167413.0207625252,0.4703857826936163,10,37.87496434891756,18.27904873602509,1.8500839637997528,10.545839667438594,7.199991981654127,2.421422,6.391105,10.92886,16.514233,36.25562
24.96025765896683,16.26439037698202,57.6374462582993,5.76374462582993,163558.15685591442,0.5708776330342189,10,73.75585335765788,29.510325976203557,6.953421288211759,22.68512122377337,14.606984869469196,5.4652834,12.595674,21.325607,32.08564,71.472206
22.250329650465396,14.072732782426437,72.32637246380823,3.6163186231904114,104638.59597697228,0.6948953712052757,20,51.56773580322346,24.321118417964104,2.521877116871656,14.940986219075011,9.783754049312686,3.9223511,9.497918,16.147959,24.256607,53.824837
23.88898252962111,3.6682349292456986,38.30784436538087,1.9153922182690435,177489.60958300985,0.3814669544900226,20,14.255853143184268,5.979540217579164,1.6258551755778798,4.086667904090019,2.5637898459372073,0.82644445,2.5079136,4.3453026,6.4814253,14.161086
15.78276275518059,15.448313569882862,44.628880372419275,4.462888037241927,172191.27597357918,0.6495930455433149,10,44.64337171152712,20.160774401149165,4.066290171870164,12.78515248771404,7.631154650793754,3.027873,7.558046,12.803772,19.305847,42.695538
24.448217522096808,5.276701253747537,46.511520962844195,2.3255760481422096,139768.7965514405,0.4786077410517529,20,20.83986093688597,8.920808048750171,1.0400402918630396,7.171135832620246,3.7078767636525143,1.3367629,3.7705405,6.502248,9.752328,21.36188
23.057991456415863,9.866204575088046,61.71452692732105,3.0857263463660525,108298.20908193936,0.6294199096907795,20,37.060719106479496,16.94444139424061,1.7528891705050198,11.626616577438808,6.736771964295059,2.6363115,6.700334,11.469726,17.215858,38.02223
22.279015793346897,11.541994857603614,31.982685467643137,6.396537093528627,160520.4342491487,0.310523808600429,5,52.56585177484132,23.90915586099572,2.4310977789177386,16.647524353935488,9.578073780992376,3.8036423,9.187777,15.651583,23.648752,52.291756
18.701326102928363,11.210966721633955,28.9025579365134,5.78051158730268,161807.9256290666,0.3595243209774791,5,42.58837353565153,20.425121491643143,2.101480936412035,13.189459517172306,6.872311590424037,3.0063376,7.474749,12.7623205,19.28265,42.52606
21.02178876220371,7.626310276782363,36.21928606417829,3.621928606417829,176499.2099388611,0.4248707092585571,10,29.135015373664203,12.199769100730904,4.32106427773518,7.908056655511428,4.706125339686688,1.8637583,5.0951896,8.74448,13.2108,28.914228
19.979153825880992,4.97844451420209,40.84099151927317,2.0420495759636585,112607.59170031502,0.5147571181556994,20,16.06577934898978,7.063303851954893,1.7345545337047428,4.197895814576721,3.070025148753423,0.99427384,2.6476495,4.641825,6.8845143,15.1682625
20.586214273089187,11.954357307592778,44.88247887183865,4.488247887183865,184851.12714817963,0.5454917490057984,10,44.65127006307014,18.78259866481585,2.6511288987390227,14.546686844731882,8.670855654783388,3.103396,7.7771015,13.220226,19.94125,44.041973
23.68830015978198,5.45889129874191,46.56765212669458,2.328382606334729,165373.61828915912,0.495422040038907,20,20.884544394578327,9.545213511073078,1.483191194691066,6.055310781898118,3.8008289069160655,1.2310932,3.5820832,6.1613655,9.22872,20.203262
15.627004669738332,27.846073269620774,41.645501333751994,8.329100266750398,199804.47046758927,0.6285676046805377,5,88.28116075033182,39.78530771578472,11.11701494751721,23.584680258904733,13.794157828125176,6.833149,15.766657,26.552177,40.076206,89.228195
22.73598385601147,23.28576522970723,65.75577087537661,6.575577087537662,111131.640847384,0.6574048141960874,10,97.04264199599407,43.84639238768105,4.978484534325936,31.460775556789805,16.756989517197283,7.723984,17.142078,29.090538,43.747353,97.70395
23.231877662482425,7.014352269011963,36.49511659935765,3.649511659935765,173817.57775565083,0.3692391788308475,10,29.767220235170896,14.061941644791872,1.979832782536577,7.827108819957604,5.898336987884843,1.8816488,5.174999,8.867515,13.411901,29.336063
18.54862516220557,8.307271834877172,35.518027804506886,3.5518027804506884,147281.53652545053,0.4825026101776311,10,27.935441473511943,13.055765962679086,2.8199185842132506,7.745307544392699,4.314449382226908,1.8808525,4.87152,8.4129305,12.65765,27.822952
23.03755745174932,7.8399079591161955,38.43727266993323,3.843727266993324,108741.51938714918,0.4060992441764759,10,32.86993699428646,13.943090771907912,1.5940147259652608,11.037604256508628,6.295227239904659,2.1578245,5.5450134,9.560539,14.405273,31.668652
22.392026901985375,6.0425133649171405,33.236523769242474,3.3236523769242474,180491.14307510803,0.332466163494636,10,24.837470596488785,10.346860663901884,2.96577769048382,7.415015385258002,4.109816856845084,1.4776431,4.149429,7.1377563,10.770065,23.534893
17.381926903445454,34.304350118816664,48.73729515701058,9.747459031402116,109987.08057299948,0.6469796497030671,5,121.21091839115826,58.48672937687538,10.038186705610704,31.49767798626108,21.18832432241109,9.4239645,21.13638,35.855267,54.02969,120.4453
17.369364112635292,7.314664849777725,46.121901723745495,2.3060950861872747,150495.7863589267,0.6264694628511114,20,20.689586206942167,8.896152246393047,1.590430624496729,6.365124527374739,3.8378788086776514,1.4824584,3.9731095,6.8732734,10.277121,22.60596
21.429572508534108,6.051113839832537,32.54541147383211,3.254541147383211,173564.53078380506,0.347579064526694,10,23.7524019879813,10.052415077323156,2.423312623091837,7.356988597302888,3.919685690263417,1.4574871,4.068576,7.0134935,10.576447,23.116003
20.889667783903125,5.475339894066087,43.794670635321154,2.189733531766058,115562.9535543938,0.5268621371949328,20,18.479372588178848,8.43251900811147,1.252208056662301,5.814126007152189,2.9805195162528877,1.211031,3.2339716,5.614977,8.372402,18.43238
17.688690696966965,2.3663117623013328,26.45887056666144,1.322943528333072,174125.24305871595,0.3369376999755835,20,6.853365272775939,3.3288549264532734,0.4637864132877618,2.0273994704487244,1.0333244625861793,0.40263924,1.2058394,2.1536973,3.1052938,6.86747
23.71506219443502,16.192119331620916,56.052209441705365,5.6052209441705365,145175.74445697342,0.5807571526683566,10,69.81209867942323,30.521160798927234,6.838191185936909,19.555462840856087,12.897283853703,5.1094103,11.878161,20.14647,30.327385,67.461426
15.15395103477244,14.06438601612592,29.169324794059243,5.833864958811849,172908.4965553562,0.4857192961303137,5,42.96111523424656,17.34212087121944,5.886487200746779,12.938767401310498,6.793739760969847,3.12278,7.6158037,12.949087,19.540783,43.228455
16.24181255262548,13.4455470231443,29.52370127321628,5.904740254643256,113123.16045802685,0.4554204931591507,5,44.05026704339872,20.62274323518716,3.5794611313761675,12.719779833915885,7.128282842919502,3.4300303,8.050713,13.797623,20.731853,46.01022
21.95209976669534,8.471916365737426,55.812588532861774,2.790629426643089,124008.82904217584,0.6098779477210332,20,30.224101338840313,13.722338069196422,4.090183810437028,7.590779242886441,4.820800216320422,2.0599647,5.430253,9.305281,13.965461,30.76096
19.351738729044964,3.973746132576653,35.90870491169874,1.7954352455849372,108716.30519659942,0.46543955861004,20,12.427142511403389,4.973239559784619,1.757347375394037,3.482218986900721,2.2143365893240117,0.7810148,2.0749428,3.6656857,5.3896174,11.911261
15.944340967716697,3.948913767846215,32.49405478986639,1.6247027394933196,131879.5882871176,0.5132778613800445,20,10.16964773230896,4.6046780539243395,0.5814078394372069,3.39365548298598,1.5899063559614333,0.6792848,1.8149978,3.2412806,4.7364645,10.472028
24.213996110586713,47.3394235243206,67.57610285596107,13.515220571192213,183717.740765926,0.6453194107496476,5,232.97068165543033,95.85575696226022,32.569013904358044,64.85824089071767,39.68766989809437,19.918465,41.638847,70.25821,105.57249,237.388
19.46089224449827,33.812151035586375,51.21437083465284,10.242874166930568,156813.11738824114,0.6238638130851324,5,133.43227186037916,59.36847852090748,16.787319770329134,33.826442275629276,23.450031293513277,10.4993515,23.191406,39.209,59.06636,131.96613
21.52752117019405,10.649363969594551,43.32394629667615,4.332394629667615,199711.7183329344,0.5076071440341783,10,41.55797603282059,18.048483010770248,2.9284237768128047,12.548471359765005,8.032597885472534,2.8273368,7.1547565,12.157997,18.327452,40.467545
20.244023731344416,2.982997176861698,31.79542208476507,1.5897711042382536,137607.8108367159,0.3684914195298587,20,9.840422361503286,4.000849372752298,0.8101346417168169,3.146348955659006,1.8830893913751656,0.6468774,1.8024604,3.1835535,4.682616,10.315508
20.371371310926538,3.130743026195938,32.68101356871647,1.6340506784358235,137904.71010241954,0.3817304888402297,20,10.375096271799755,4.995803320862897,0.5164377953316521,3.236718466484472,1.6261366891207347,0.66693914,1.8572428,3.2780952,4.8262362,10.628513
16.261852683860372,8.900568263202741,34.42248725966542,3.4422487259665417,192605.7031751661,0.531864276084227,10,26.248966984663156,12.964353803705809,1.3114273474286011,7.573409704346429,4.399776129182318,1.8451635,4.7105,8.0586605,12.095067,26.70939
24.63106905655242,24.425671396203207,70.10257186685457,7.0102571866854575,153100.2849528918,0.6518601286240427,10,110.19334067778726,45.32056473238579,10.434361938137204,33.58720254721062,20.851211460053644,9.344557,20.020224,33.882477,50.85447,114.10173
19.640319755542897,8.082773609211477,36.048762075365765,3.604876207536576,116203.04971026612,0.460115106917781,10,28.796933479944045,13.662657145451709,1.41694607145009,9.311163855998178,4.406166407044069,1.8508002,4.7322164,8.184242,12.282978,27.050236
22.773242170053184,18.92088147108739,59.35285550158528,5.935285550158528,102750.73128490348,0.619807693669089,10,78.61367019273905,34.99140449197153,5.291885946830083,24.461360431532952,13.869019322404483,6.175539,13.987802,23.820139,35.82858,79.81206
23.253225030602938,39.68100969844188,60.64918919963106,12.129837839926212,162422.13449941203,0.6204807103147052,5,187.0466178448777,83.19923433113189,15.56909964503398,58.05919859370325,30.21908527500854,15.68366,33.18587,56.100315,84.33509,189.30493
19.00966515697077,23.449017658144523,42.17878329773397,8.435756659546794,104867.98738309984,0.5538545964516466,5,89.9480218457818,43.126088748044566,4.435766780903611,26.823932354719464,15.562233962114144,6.900674,15.72055,26.77644,40.349182,89.74684
22.36519604914838,22.54861123518433,44.86966132516001,8.973932265032001,101258.51839592376,0.5065752545940709,5,101.64680942401549,45.91827278645339,5.879043859652942,30.406240217633997,19.443252560275155,8.085558,18.04378,30.71772,46.262054,103.109116
23.461489277587457,18.518363293246516,41.64032798719925,8.32806559743985,119034.10381567237,0.4422537256839785,5,87.68499886666643,35.17223815348798,12.72577888119353,26.56313744445881,13.22384438752611,6.861397,15.497618,26.373795,39.742783,88.47559
15.759746691745804,41.14488976018441,50.78447480508418,10.156894961016835,141366.32988023575,0.6928473906472075,5,132.62046403466616,56.020857202245914,14.03383522135,39.35738478408574,23.208386826984512,10.209516,22.926926,38.730896,58.404724,130.27206
24.078453418843115,3.4056352916195647,37.04451945813361,1.8522259729066803,132507.06261704804,0.3553188723502415,20,13.3876096366279,5.462234808378703,0.8726429715026334,4.684525702360144,2.3682061543864195,0.8380588,2.3756227,4.1485934,6.164425,13.5267
15.980849693776092,10.398705397274249,25.740196795275143,5.148039359055029,199100.611635964,0.3854374389636274,5,33.66860175179937,14.986792057565047,2.1793148823847988,10.035031200850904,6.467463610998622,2.3416204,5.9951644,10.1855545,15.386356,33.908695
23.032459988458736,22.791108083534255,45.7783649841927,9.15567299683854,164048.77599392476,0.5019406185817825,5,105.80354490144911,45.89139094558822,5.18686125660459,36.21383365777081,18.5114590414855,8.258812,18.386028,31.128119,46.887123,104.66008
23.96029912971818,2.987980339709774,34.589143307003724,1.7294571653501862,105039.1571325794,0.3129837892585285,20,11.772460997541105,4.813426515427885,1.4884743371507314,3.3764513128596443,2.094108832102842,0.85908186,2.3870554,4.1815014,6.204589,13.632227
24.198086863095856,14.673425658796322,37.614655517757015,7.522931103551403,199769.85635020013,0.3632158349027419,5,72.09636672682728,29.34154137768556,8.290130509663156,22.79465887057419,11.67003596890438,5.846362,13.40086,22.72422,34.263794,76.23524
23.74057324452376,16.074667141696196,39.011828077345385,7.802365615469077,169837.72189537872,0.3976101839811404,5,77.23726667150726,36.24509510087806,7.817916737647396,19.78706462118487,13.387190211796929,5.898904,13.519912,22.949417,34.60492,76.97315
19.209548107940776,7.321548590282525,33.92731573573102,3.3927315735731023,169043.90080817766,0.4389432514796083,10,25.537364566459942,10.92597316612187,2.407089035933785,7.581158029552037,4.623144334852249,1.7225056,4.604424,7.9432797,11.973933,26.244143
21.642245529294183,3.2642051617413608,34.39304352208083,1.7196521761040415,165177.2977399063,0.3758597635664324,20,11.500657432808666,5.036049465545795,1.3863634323420604,3.1745219291162585,1.903722605804552,0.65543497,1.9145936,3.363363,4.9690776,10.90247
21.978727761318225,20.083796971224317,41.97825606811629,8.395651213623257,120437.6763899126,0.4817030485748814,5,88.98150954005843,39.236232180603025,8.570112165322914,25.96868143738891,15.206483756743577,6.841468,15.519333,26.399858,39.7809,88.54156
20.47963733713004,50.35632666800191,64.0564387308245,12.8112877461649,135479.4093862032,0.6835525925768063,5,210.63383921555453,94.06920128684594,10.086184515414292,69.35497993559095,37.123473477703406,17.538097,37.2849,63.052162,94.84364,212.71881
21.589048144527993,9.474315719164675,58.514797595386206,2.9257398797693104,132807.88316524826,0.6340569039832232,20,33.342381316053775,15.818497662843567,1.6466027290389562,9.40504879342017,6.472232130751083,2.22534,5.8374777,9.978918,14.983377,33.025116
18.58100858210666,25.919281983673702,43.83421398931043,8.766842797862086,192357.15971775065,0.5803900044951669,5,97.31873776855196,44.05280650595715,12.471922485865088,25.545888643056344,15.248120133673371,7.5832114,17.159199,28.954205,43.650215,97.34683
22.34843430334576,8.732552414335263,39.96695023651141,3.996695023651141,119894.5999020673,0.4459018847065046,10,35.4231628115171,16.547722283418114,3.412152289713392,8.927481096809812,6.535807141575784,2.4092298,6.1613703,10.591678,15.975697,35.137974
16.556148068256697,9.024214052325492,34.97309229424581,3.497309229424581,130151.2570727868,0.5308957299905014,10,27.094505587760068,12.520314731402223,1.266982194053086,8.858348571831126,4.448860090473629,1.8358841,4.6107664,7.976979,11.941435,26.365065
22.13031646643159,8.749158551997702,56.945253873246635,2.847262693662332,138033.52084460226,0.6145351602217357,20,31.483550636270024,12.678223266088578,2.282221563558532,10.524077334613418,5.999028472009495,2.0780113,5.535187,9.468584,14.223617,31.3054
21.472572162448778,4.617097404734019,40.77381137902707,2.0386905689513535,165251.85549046518,0.4776271433933913,20,16.015772485582318,7.861878763756387,0.7891422222191087,4.431230693616301,2.9335208059905233,0.9587202,2.7981515,4.8534117,7.2400303,15.850313
16.294052310678705,17.054666967133134,33.307211960379654,6.661442392075931,100249.32461710408,0.5157256401015202,5,56.01556198893988,24.556347114167497,6.538623649287729,14.346014215274945,10.574577010209712,4.425216,10.233316,17.488443,26.297459,58.444435
15.164153316700276,6.431127395829572,28.25537502363346,2.8255375023633458,119695.29827472866,0.4681843595443435,10,17.68598005697406,8.185340063187116,1.3060748561564313,4.853982793896624,3.3405823437338884,1.1530597,2.9720037,5.187378,7.6937437,17.006184
16.625238842732518,8.073799088055885,47.38991612456517,2.3694958062282585,163804.0801926917,0.6520488519254463,20,21.938630692499004,9.79663368481968,1.075723047236905,7.01420900355141,4.0520649568910105,1.4167202,3.8166735,6.583059,9.83175,21.648201
19.21701115886643,4.534808864369851,38.22856524859667,1.911428262429833,157135.70313482868,0.5013720720084798,20,14.074312501611216,5.663048374257762,0.998201203468906,4.837083876350834,2.5759790475337145,0.94766843,2.6410975,4.6049175,6.849583,15.043266
19.078398964963696,16.31514580710554,35.24894330685148,7.049788661370296,177848.2536914079,0.4642099253334761,5,62.76926002958819,25.486300570040765,10.192276670179677,16.890466854955893,10.200215934411853,4.7223034,11.144478,18.918373,28.554443,63.3396
17.123666019126627,3.781750791479692,32.95378338720831,1.6476891693604157,166208.42072471656,0.4845698860107624,20,10.459845544313708,4.306642753893244,1.635599063821808,2.843663699862262,1.6739400267363944,0.65675783,1.8372669,3.2391305,4.7579875,10.491142
21.13228958785664,16.93685853651935,37.79506101731665,7.55901220346333,178922.16197933824,0.4465128081912685,5,72.22127184175093,29.83076239253832,7.216847855635615,23.713959101745708,11.459702491831292,5.5388737,12.828075,21.765013,32.828167,72.96013
15.9872974510195,13.871118469683568,29.752853186671153,5.950570637334231,104623.540060285,0.4680807164051753,5,44.71524240364005,18.394775778928675,4.40249932040345,12.978511377148289,8.939455927159635,3.5371513,8.262119,14.15636,21.263008,47.21864
17.18624172223032,4.444062123873162,24.964898380105996,2.4964898380105995,160765.28158214907,0.3179166357241117,10,14.052110776590538,6.6302649754612375,0.6948149152097701,4.197450062731497,2.5295808231880352,0.8233938,2.3438582,4.076165,6.0685444,13.311962
22.603211808213125,13.233520970075576,70.70666890105744,3.535333445052872,118800.18865090705,0.682950484774718,20,49.14842610086009,20.90638644873325,6.570589279188017,13.073364916730084,8.59808545620874,3.5354567,8.678468,14.745254,22.145742,49.10492
17.891232068140994,2.768003244106182,28.798884738265055,1.439944236913253,156239.17876131344,0.3838044536168691,20,8.054200297277035,3.475943488820352,0.7737854430639264,2.4054635519935186,1.3990078133992376,0.49253845,1.3986428,2.4916797,3.622386,8.005247
24.67769681202676,13.494192134174003,36.40810731531401,7.281621463062803,194789.4229945264,0.3291020745059586,5,67.89552655369812,29.918317755328044,5.2460649983328445,20.779601947367777,11.95154185266945,5.4701357,12.645089,21.459633,32.374573,71.94943
18.62439564349152,10.017049955438088,39.0809125900719,3.9080912590071897,182534.31928470876,0.5277609020914684,10,33.829728663414045,16.287614823191767,2.3278470459459095,9.0258119706589,6.188454823617469,2.2455583,5.867916,10.023049,15.125456,33.26198
19.960239809165877,7.757349459102861,50.925620091136665,2.546281004556833,192428.15934099676,0.6112365074980388,20,25.16761640385721,11.663222741778789,1.1933856135149603,7.885211695983418,4.425796352580037,1.5524662,4.349521,7.4279895,11.13843,24.468407
24.9823109557518,37.04047751154209,60.753928542861146,12.15078570857223,184334.89916535764,0.5929533416272212,5,187.14876046466043,85.28336585611352,16.686975135013945,49.0083226846057,36.17009678892726,16.05748,33.736626,56.98323,85.61916,192.3965
20.706327285415345,6.2733391628368045,32.58411387709195,3.258411387709195,192540.711957302,0.3703302605915318,10,23.725366162582745,9.845181387020917,2.004360323015576,7.806509868327165,4.069314584219087,1.3679295,3.8442729,6.620271,9.968094,21.800568
